
**** 04/04/17 02:03:38 *********** Evaluation PSpice (Nov 1999) **************

 *summing amplifier


 ****     CIRCUIT DESCRIPTION


******************************************************************************



X1 0 2 6 7 8 ua741
Rf 2 8 100k
R1 3 2 10k
R2 4 2 10k
R3 5 2 10k
Vin1 3 0 sin(0 2v 100hz)
Vin2 4 0 sin(0 1v 100hz)
Vin3 5 0 sin(0 0.5v 100hz)
v 8 0 sin(0 2.5v 100hz)
Vcc 6 0 dc 12v
Vee 0 2 dc 12v
.include ua741

**** INCLUDING ua741 ****
*-----------------------------------------------------------------------------
* connections:   non-inverting input
*                | inverting input
*                | | positive power supply
*                | | | negative power supply
*                | | | | output
*                | | | | |
.subckt uA741    1 2 3 4 5
*
c1   11 12 8.661E-12
c2    6  7 30.00E-12
dc    5 53 dy
de   54  5 dy
dlp  90 91 dx
dln  92 90 dx
dp    4  3 dx
egnd 99  0 poly(2),(3,0),(4,0) 0 .5 .5
fb    7 99 poly(5) vb vc ve vlp vln 0 10.61E6 -1E3 1E3 10E6 -10E6
ga    6  0 11 12 188.5E-6
gcm   0  6 10 99 5.961E-9
iee  10  4 dc 15.16E-6
hlim 90  0 vlim 1K
q1   11  2 13 qx
q2   12  1 14 qx
r2    6  9 100.0E3
rc1   3 11 5.305E3
rc2   3 12 5.305E3
re1  13 10 1.836E3
re2  14 10 1.836E3
ree  10 99 13.19E6
ro1   8  5 50
ro2   7 99 100
rp    3  4 18.16E3
vb    9  0 dc 0
vc    3 53 dc 1
ve   54  4 dc 1
vlim  7  8 dc 0
vlp  91  0 dc 40
vln   0 92 dc 40
.model dx D(Is=800.0E-18 Rs=1)
.model dy D(Is=800.00E-18 Rs=1m Cjo=10p)
.model qx NPN(Is=800.0E-18 Bf=93.75)
.ends

**** RESUMING 13_summing_amplifier.cir ****
.tran 0 100ms 0ms 0.01ms
.probe
.end

**** 04/04/17 02:03:38 *********** Evaluation PSpice (Nov 1999) **************

 *summing amplifier


 ****     Diode MODEL PARAMETERS


******************************************************************************




               X1.dx           X1.dy           
          IS  800.000000E-18  800.000000E-18 
          RS    1               1.000000E-03 
         CJO                   10.000000E-12 


**** 04/04/17 02:03:38 *********** Evaluation PSpice (Nov 1999) **************

 *summing amplifier


 ****     BJT MODEL PARAMETERS


******************************************************************************




               X1.qx           
               NPN             
          IS  800.000000E-18 
          BF   93.75         
          NF    1            
          BR    1            
          NR    1            
          CN    2.42         
           D     .87         


**** 04/04/17 02:03:38 *********** Evaluation PSpice (Nov 1999) **************

 *summing amplifier


 ****     INITIAL TRANSIENT SOLUTION       TEMPERATURE =   27.000 DEG C


******************************************************************************



 NODE   VOLTAGE     NODE   VOLTAGE     NODE   VOLTAGE     NODE   VOLTAGE


(    2)  -12.0000  (    3)    0.0000  (    4)    0.0000  (    5)    0.0000      

(    6)   12.0000  (    7)    -.2891  (    8)    0.0000  ( X1.6)   -1.4551      

( X1.7)    2.0306  ( X1.8)    2.0306  ( X1.9)    0.0000  (X1.10)    -.6379      

(X1.11)   12.0000  (X1.12)   11.9230  (X1.13)    -.6379  (X1.14)    -.6110      

(X1.53)   11.0000  (X1.54)     .7109  (X1.90)   40.6130  (X1.91)   40.0000      

(X1.92)  -40.0000  (X1.99)    5.8555  




    VOLTAGE SOURCE CURRENTS
    NAME         CURRENT

    Vin1        -1.200E-03
    Vin2        -1.200E-03
    Vin3        -1.200E-03
    v            4.118E-02
    Vcc         -6.912E-04
    Vee         -3.720E-03
    X1.vb       -1.455E-05
    X1.vc        1.100E-11
    X1.ve       -6.919E-04
    X1.vlim      4.061E-02
    X1.vlp       1.551E-05
    X1.vln      -8.062E-11

    TOTAL POWER DISSIPATION   5.30E-02  WATTS



          JOB CONCLUDED

          TOTAL JOB TIME             .50
