
**** 04/04/17 01:48:39 *********** Evaluation PSpice (Nov 1999) **************

 *Zero Crossing detector using IC741


 ****     CIRCUIT DESCRIPTION


******************************************************************************



X1 1 2 4 5 6 ua741
R1 2 0 1k
R2 1 3 5k
Vin 3 0 sin(0v 5v 50hz 0ms 0hz 0d)
D1 1 2 D1N4148
D2 2 1 D1N4148
Vcc 4 0 dc 12v
Vee 0 5 dc 12v
.include ua741

**** INCLUDING ua741 ****
*-----------------------------------------------------------------------------
* connections:   non-inverting input
*                | inverting input
*                | | positive power supply
*                | | | negative power supply
*                | | | | output
*                | | | | |
.subckt uA741    1 2 3 4 5
*
c1   11 12 8.661E-12
c2    6  7 30.00E-12
dc    5 53 dy
de   54  5 dy
dlp  90 91 dx
dln  92 90 dx
dp    4  3 dx
egnd 99  0 poly(2),(3,0),(4,0) 0 .5 .5
fb    7 99 poly(5) vb vc ve vlp vln 0 10.61E6 -1E3 1E3 10E6 -10E6
ga    6  0 11 12 188.5E-6
gcm   0  6 10 99 5.961E-9
iee  10  4 dc 15.16E-6
hlim 90  0 vlim 1K
q1   11  2 13 qx
q2   12  1 14 qx
r2    6  9 100.0E3
rc1   3 11 5.305E3
rc2   3 12 5.305E3
re1  13 10 1.836E3
re2  14 10 1.836E3
ree  10 99 13.19E6
ro1   8  5 50
ro2   7 99 100
rp    3  4 18.16E3
vb    9  0 dc 0
vc    3 53 dc 1
ve   54  4 dc 1
vlim  7  8 dc 0
vlp  91  0 dc 40
vln   0 92 dc 40
.model dx D(Is=800.0E-18 Rs=1)
.model dy D(Is=800.00E-18 Rs=1m Cjo=10p)
.model qx NPN(Is=800.0E-18 Bf=93.75)
.ends

**** RESUMING 11_zero_crossing_detector_IC741.cir ****
.include D1N4148

**** INCLUDING D1N4148 ****
.model D1N4148  D(Is=2.682n N=1.836 Rs=.5664 Ikf=44.17m Xti=3 Eg=1.11 Cjo=4p
+               M=.3333 Vj=.5 Fc=.5 Isr=1.565n Nr=2 Bv=100 Ibv=100u Tt=11.54n)


**** RESUMING 11_zero_crossing_detector_IC741.cir ****
.tran 0 200ms 0ms 200us 
.probe
.end

**** 04/04/17 01:48:39 *********** Evaluation PSpice (Nov 1999) **************

 *Zero Crossing detector using IC741


 ****     Diode MODEL PARAMETERS


******************************************************************************




               D1N4148         X1.dx           X1.dy           
          IS    2.682000E-09  800.000000E-18  800.000000E-18 
           N    1.836                                        
         ISR    1.565000E-09                                 
         IKF     .04417                                      
          BV  100                                            
         IBV  100.000000E-06                                 
          RS     .5664          1               1.000000E-03 
          TT   11.540000E-09                                 
         CJO    4.000000E-12                   10.000000E-12 
          VJ     .5                                          
           M     .3333                                       


**** 04/04/17 01:48:39 *********** Evaluation PSpice (Nov 1999) **************

 *Zero Crossing detector using IC741


 ****     BJT MODEL PARAMETERS


******************************************************************************




               X1.qx           
               NPN             
          IS  800.000000E-18 
          BF   93.75         
          NF    1            
          BR    1            
          NR    1            
          CN    2.42         
           D     .87         


**** 04/04/17 01:48:39 *********** Evaluation PSpice (Nov 1999) **************

 *Zero Crossing detector using IC741


 ****     INITIAL TRANSIENT SOLUTION       TEMPERATURE =   27.000 DEG C


******************************************************************************



 NODE   VOLTAGE     NODE   VOLTAGE     NODE   VOLTAGE     NODE   VOLTAGE


(    1)-396.9E-06  (    2)-80.12E-06  (    3)    0.0000  (    4)   12.0000      

(    5)  -12.0000  (    6)  -11.7010  ( X1.6)     .0056  ( X1.7)  -11.7250      

( X1.8)  -11.7250  ( X1.9)    0.0000  (X1.10)    -.6079  (X1.11)   11.9600      

(X1.12)   11.9600  (X1.13)    -.5940  (X1.14)    -.5941  (X1.53)   11.0000      

(X1.54)  -11.0000  (X1.90)    -.4761  (X1.91)   40.0000  (X1.92)  -40.0000      

(X1.99)    0.0000  




    VOLTAGE SOURCE CURRENTS
    NAME         CURRENT

    Vin         -7.937E-08
    Vcc         -1.337E-03
    Vee         -8.606E-04
    X1.vb        5.597E-08
    X1.vc        2.270E-11
    X1.ve       -4.761E-04
    X1.vlim     -4.761E-04
    X1.vlp      -4.048E-11
    X1.vln      -3.953E-11

    TOTAL POWER DISSIPATION   2.68E-02  WATTS



          JOB CONCLUDED

          TOTAL JOB TIME             .08
